Sample in Buffer,Sample in Window,TRIGGER,clk_200m,timeout_cnt_flag,tx_time[9:0],rx_time[9:0],delay[9:0],rec_pkt_done1,t_hz[7:0],us[9:0],ms[9:0]
0,0,0,0,0,3d3,3d3,002,0,c2,20c,380
1,1,0,0,0,3d3,3d3,002,0,c3,20c,380
2,2,0,0,0,3d3,3d3,002,0,c4,20c,380
3,3,0,0,0,3d3,3d3,002,0,c5,20c,380
4,4,0,0,0,3d3,3d3,002,0,c6,20c,380
5,5,0,0,0,3d3,3d3,002,0,c7,20c,380
6,6,0,0,0,3d3,3d3,002,0,c8,20c,380
7,7,0,0,0,3d3,3d3,002,0,00,20d,380
8,8,0,0,0,3d3,3d3,002,0,01,20d,380
9,9,0,0,0,3d3,3d3,002,0,02,20d,380
10,10,0,0,0,3d3,3d3,002,0,03,20d,380
11,11,0,0,0,3d3,3d3,002,0,04,20d,380
12,12,0,0,0,3d3,3d3,002,0,05,20d,380
13,13,0,0,0,3d3,3d3,002,0,06,20d,380
14,14,0,0,0,3d3,3d3,002,0,07,20d,380
15,15,0,0,0,3d3,3d3,002,0,08,20d,380
16,16,0,0,0,3d3,3d3,002,0,09,20d,380
17,17,0,0,0,3d3,3d3,002,0,0a,20d,380
18,18,0,0,0,3d3,3d3,002,0,0b,20d,380
19,19,0,0,0,3d3,3d3,002,0,0c,20d,380
20,20,0,0,0,3d3,3d3,002,0,0d,20d,380
21,21,0,0,0,3d3,3d3,002,0,0e,20d,380
22,22,0,0,0,3d3,3d3,002,0,0f,20d,380
23,23,0,0,0,3d3,3d3,002,0,10,20d,380
24,24,0,0,0,3d3,3d3,002,0,11,20d,380
25,25,0,0,0,3d3,3d3,002,0,12,20d,380
26,26,0,0,0,3d3,3d3,002,0,13,20d,380
27,27,0,0,0,3d3,3d3,002,0,14,20d,380
28,28,0,0,0,3d3,3d3,002,0,15,20d,380
29,29,0,0,0,3d3,3d3,002,0,16,20d,380
30,30,0,0,0,3d3,3d3,002,0,17,20d,380
31,31,0,0,0,3d3,3d3,002,0,18,20d,380
32,32,0,0,0,3d3,3d3,002,0,19,20d,380
33,33,0,0,0,3d3,3d3,002,0,1a,20d,380
34,34,0,0,0,3d3,3d3,002,0,1b,20d,380
35,35,0,0,0,3d3,3d3,002,0,1c,20d,380
36,36,0,0,0,3d3,3d3,002,0,1d,20d,380
37,37,0,0,0,3d3,3d3,002,0,1e,20d,380
38,38,0,0,0,3d3,3d3,002,0,1f,20d,380
39,39,0,0,0,3d3,3d3,002,0,20,20d,380
40,40,0,0,0,3d3,3d3,002,0,21,20d,380
41,41,0,0,0,3d3,3d3,002,0,22,20d,380
42,42,0,0,0,3d3,3d3,002,0,23,20d,380
43,43,0,0,0,3d3,3d3,002,0,24,20d,380
44,44,0,0,0,3d3,3d3,002,0,25,20d,380
45,45,0,0,0,3d3,3d3,002,0,26,20d,380
46,46,0,0,0,3d3,3d3,002,0,27,20d,380
47,47,0,0,0,3d3,3d3,002,0,28,20d,380
48,48,0,0,0,3d3,3d3,002,0,29,20d,380
49,49,0,0,0,3d3,3d3,002,0,2a,20d,380
50,50,0,0,0,3d3,3d3,002,0,2b,20d,380
51,51,0,0,0,3d3,3d3,002,0,2c,20d,380
52,52,0,0,0,3d3,3d3,002,0,2d,20d,380
53,53,0,0,0,3d3,3d3,002,0,2e,20d,380
54,54,0,0,0,3d3,3d3,002,0,2f,20d,380
55,55,0,0,0,3d3,3d3,002,0,30,20d,380
56,56,0,0,0,3d3,3d3,002,0,31,20d,380
57,57,0,0,0,3d3,3d3,002,0,32,20d,380
58,58,0,0,0,3d3,3d3,002,0,33,20d,380
59,59,0,0,0,3d3,3d3,002,0,34,20d,380
60,60,0,0,0,3d3,3d3,002,0,35,20d,380
61,61,0,0,0,3d3,3d3,002,0,36,20d,380
62,62,0,0,0,3d3,3d3,002,0,37,20d,380
63,63,0,0,0,3d3,3d3,002,0,38,20d,380
64,64,0,0,0,3d3,3d3,002,0,39,20d,380
65,65,0,0,0,3d3,3d3,002,0,3a,20d,380
66,66,0,0,0,3d3,3d3,002,0,3b,20d,380
67,67,0,0,0,3d3,3d3,002,0,3c,20d,380
68,68,0,0,0,3d3,3d3,002,0,3d,20d,380
69,69,0,0,0,3d3,3d3,002,0,3e,20d,380
70,70,0,0,0,3d3,3d3,002,0,3f,20d,380
71,71,0,0,0,3d3,3d3,002,0,40,20d,380
72,72,0,0,0,3d3,3d3,002,0,41,20d,380
73,73,0,0,0,3d3,3d3,002,0,42,20d,380
74,74,0,0,0,3d3,3d3,002,0,43,20d,380
75,75,0,0,0,3d3,3d3,002,0,44,20d,380
76,76,0,0,0,3d3,3d3,002,0,45,20d,380
77,77,0,0,0,3d3,3d3,002,0,46,20d,380
78,78,0,0,0,3d3,3d3,002,0,47,20d,380
79,79,0,0,0,3d3,3d3,002,0,48,20d,380
80,80,0,0,0,3d3,3d3,002,0,49,20d,380
81,81,0,0,0,3d3,3d3,002,0,4a,20d,380
82,82,0,0,0,3d3,3d3,002,0,4b,20d,380
83,83,0,0,0,3d3,3d3,002,0,4c,20d,380
84,84,0,0,0,3d3,3d3,002,0,4d,20d,380
85,85,0,0,0,3d3,3d3,002,0,4e,20d,380
86,86,0,0,0,3d3,3d3,002,0,4f,20d,380
87,87,0,0,0,3d3,3d3,002,0,50,20d,380
88,88,0,0,0,3d3,3d3,002,0,51,20d,380
89,89,0,0,0,3d3,3d3,002,0,52,20d,380
90,90,0,0,0,3d3,3d3,002,0,53,20d,380
91,91,0,0,0,3d3,3d3,002,0,54,20d,380
92,92,0,0,0,3d3,3d3,002,0,55,20d,380
93,93,0,0,0,3d3,3d3,002,0,56,20d,380
94,94,0,0,0,3d3,3d3,002,0,57,20d,380
95,95,0,0,0,3d3,3d3,002,0,58,20d,380
96,96,0,0,0,3d3,3d3,002,0,59,20d,380
97,97,0,0,0,3d3,3d3,002,0,5a,20d,380
98,98,0,0,0,3d3,3d3,002,0,5b,20d,380
99,99,0,0,0,3d3,3d3,002,0,5c,20d,380
100,100,0,0,0,3d3,3d3,002,0,5d,20d,380
101,101,0,0,0,3d3,3d3,002,0,5e,20d,380
102,102,0,0,0,3d3,3d3,002,0,5f,20d,380
103,103,0,0,0,3d3,3d3,002,0,60,20d,380
104,104,0,0,0,3d3,3d3,002,0,61,20d,380
105,105,0,0,0,3d3,3d3,002,0,62,20d,380
106,106,0,0,0,3d3,3d3,002,0,63,20d,380
107,107,0,0,0,3d3,3d3,002,0,64,20d,380
108,108,0,0,0,3d3,3d3,002,0,65,20d,380
109,109,0,0,0,3d3,3d3,002,0,66,20d,380
110,110,0,0,0,3d3,3d3,002,0,67,20d,380
111,111,0,0,0,3d3,3d3,002,0,68,20d,380
112,112,0,0,0,3d3,3d3,002,0,69,20d,380
113,113,0,0,0,3d3,3d3,002,0,6a,20d,380
114,114,0,0,0,3d3,3d3,002,0,6b,20d,380
115,115,0,0,0,3d3,3d3,002,0,6c,20d,380
116,116,0,0,0,3d3,3d3,002,0,6d,20d,380
117,117,0,0,0,3d3,3d3,002,0,6e,20d,380
118,118,0,0,0,3d3,3d3,002,0,6f,20d,380
119,119,0,0,0,3d3,3d3,002,0,70,20d,380
120,120,0,0,0,3d3,3d3,002,0,71,20d,380
121,121,0,0,0,3d3,3d3,002,0,72,20d,380
122,122,0,0,0,3d3,3d3,002,0,73,20d,380
123,123,0,0,0,3d3,3d3,002,0,74,20d,380
124,124,0,0,0,3d3,3d3,002,0,75,20d,380
125,125,0,0,0,3d3,3d3,002,0,76,20d,380
126,126,0,0,0,3d3,3d3,002,0,77,20d,380
127,127,0,0,0,3d3,3d3,002,0,78,20d,380
128,128,0,0,0,3d3,3d3,002,0,79,20d,380
129,129,0,0,0,3d3,3d3,002,0,7a,20d,380
130,130,0,0,0,3d3,3d3,002,0,7b,20d,380
131,131,0,0,0,3d3,3d3,002,0,7c,20d,380
132,132,0,0,0,3d3,3d3,002,0,7d,20d,380
133,133,0,0,0,3d3,3d3,002,0,7e,20d,380
134,134,0,0,0,3d3,3d3,002,0,7f,20d,380
135,135,0,0,0,3d3,3d3,002,0,80,20d,380
136,136,0,0,0,3d3,3d3,002,0,81,20d,380
137,137,0,0,0,3d3,3d3,002,0,82,20d,380
138,138,0,0,0,3d3,3d3,002,0,83,20d,380
139,139,0,0,0,3d3,3d3,002,0,84,20d,380
140,140,0,0,0,3d3,3d3,002,0,85,20d,380
141,141,0,0,0,3d3,3d3,002,0,86,20d,380
142,142,0,0,0,3d3,3d3,002,0,87,20d,380
143,143,0,0,0,3d3,3d3,002,0,88,20d,380
144,144,0,0,0,3d3,3d3,002,0,89,20d,380
145,145,0,0,0,3d3,3d3,002,0,8a,20d,380
146,146,0,0,0,3d3,3d3,002,0,8b,20d,380
147,147,0,0,0,3d3,3d3,002,0,8c,20d,380
148,148,0,0,0,3d3,3d3,002,0,8d,20d,380
149,149,0,0,0,3d3,3d3,002,0,8e,20d,380
150,150,0,0,0,3d3,3d3,002,0,8f,20d,380
151,151,0,0,0,3d3,3d3,002,0,90,20d,380
152,152,0,0,0,3d3,3d3,002,0,91,20d,380
153,153,0,0,0,3d3,3d3,002,0,92,20d,380
154,154,0,0,0,3d3,3d3,002,0,93,20d,380
155,155,0,0,0,3d3,3d3,002,0,94,20d,380
156,156,0,0,0,3d3,3d3,002,0,95,20d,380
157,157,0,0,0,3d3,3d3,002,0,96,20d,380
158,158,0,0,0,3d3,3d3,002,0,97,20d,380
159,159,0,0,0,3d3,3d3,002,0,98,20d,380
160,160,0,0,0,3d3,3d3,002,0,99,20d,380
161,161,0,0,0,3d3,3d3,002,0,9a,20d,380
162,162,0,0,0,3d3,3d3,002,0,9b,20d,380
163,163,0,0,0,3d3,3d3,002,0,9c,20d,380
164,164,0,0,0,3d3,3d3,002,0,9d,20d,380
165,165,0,0,0,3d3,3d3,002,0,9e,20d,380
166,166,0,0,0,3d3,3d3,002,0,9f,20d,380
167,167,0,0,0,3d3,3d3,002,0,a0,20d,380
168,168,0,0,0,3d3,3d3,002,0,a1,20d,380
169,169,0,0,0,3d3,3d3,002,0,a2,20d,380
170,170,0,0,0,3d3,3d3,002,0,a3,20d,380
171,171,0,0,0,3d3,3d3,002,0,a4,20d,380
172,172,0,0,0,3d3,3d3,002,0,a5,20d,380
173,173,0,0,0,3d3,3d3,002,0,a6,20d,380
174,174,0,0,0,3d3,3d3,002,0,a7,20d,380
175,175,0,0,0,3d3,3d3,002,0,a8,20d,380
176,176,0,0,0,3d3,3d3,002,0,a9,20d,380
177,177,0,0,0,3d3,3d3,002,0,aa,20d,380
178,178,0,0,0,3d3,3d3,002,0,ab,20d,380
179,179,0,0,0,3d3,3d3,002,0,ac,20d,380
180,180,0,0,0,3d3,3d3,002,0,ad,20d,380
181,181,0,0,0,3d3,3d3,002,0,ae,20d,380
182,182,0,0,0,3d3,3d3,002,0,af,20d,380
183,183,0,0,0,3d3,3d3,002,0,b0,20d,380
184,184,0,0,0,3d3,3d3,002,0,b1,20d,380
185,185,0,0,0,3d3,3d3,002,0,b2,20d,380
186,186,0,0,0,3d3,3d3,002,0,b3,20d,380
187,187,0,0,0,3d3,3d3,002,0,b4,20d,380
188,188,0,0,0,3d3,3d3,002,0,b5,20d,380
189,189,0,0,0,3d3,3d3,002,0,b6,20d,380
190,190,0,0,0,3d3,3d3,002,0,b7,20d,380
191,191,0,0,0,3d3,3d3,002,0,b8,20d,380
192,192,0,0,0,3d3,3d3,002,0,b9,20d,380
193,193,0,0,0,3d3,3d3,002,0,ba,20d,380
194,194,0,0,0,3d3,3d3,002,0,bb,20d,380
195,195,0,0,0,3d3,3d3,002,0,bc,20d,380
196,196,0,0,0,3d3,3d3,002,0,bd,20d,380
197,197,0,0,0,3d3,3d3,002,0,be,20d,380
198,198,0,0,0,3d3,3d3,002,0,bf,20d,380
199,199,0,0,0,3d3,3d3,002,0,c0,20d,380
200,200,0,0,0,3d3,3d3,002,0,c1,20d,380
201,201,0,0,0,3d3,3d3,002,0,c2,20d,380
202,202,0,0,0,3d3,3d3,002,0,c3,20d,380
203,203,0,0,0,3d3,3d3,002,0,c4,20d,380
204,204,0,0,0,3d3,3d3,002,0,c5,20d,380
205,205,0,0,0,3d3,3d3,002,0,c6,20d,380
206,206,0,0,0,3d3,3d3,002,0,c7,20d,380
207,207,0,0,0,3d3,3d3,002,0,c8,20d,380
208,208,0,0,0,3d3,3d3,002,0,00,20e,380
209,209,0,0,0,3d3,3d3,002,0,01,20e,380
210,210,0,0,0,3d3,3d3,002,0,02,20e,380
211,211,0,0,0,3d3,3d3,002,0,03,20e,380
212,212,0,0,0,3d3,3d3,002,0,04,20e,380
213,213,0,0,0,3d3,3d3,002,0,05,20e,380
214,214,0,0,0,3d3,3d3,002,0,06,20e,380
215,215,0,0,0,3d3,3d3,002,0,07,20e,380
216,216,0,0,0,3d3,3d3,002,0,08,20e,380
217,217,0,0,0,3d3,3d3,002,0,09,20e,380
218,218,0,0,0,3d3,3d3,002,0,0a,20e,380
219,219,0,0,0,3d3,3d3,002,0,0b,20e,380
220,220,0,0,0,3d3,3d3,002,0,0c,20e,380
221,221,0,0,0,3d3,3d3,002,0,0d,20e,380
222,222,0,0,0,3d3,3d3,002,0,0e,20e,380
223,223,0,0,0,3d3,3d3,002,0,0f,20e,380
224,224,0,0,0,3d3,3d3,002,0,10,20e,380
225,225,0,0,0,3d3,3d3,002,0,11,20e,380
226,226,0,0,0,3d3,3d3,002,0,12,20e,380
227,227,0,0,0,3d3,3d3,002,0,13,20e,380
228,228,0,0,0,3d3,3d3,002,0,14,20e,380
229,229,0,0,0,3d3,3d3,002,0,15,20e,380
230,230,0,0,0,3d3,3d3,002,0,16,20e,380
231,231,0,0,0,3d3,3d3,002,0,17,20e,380
232,232,0,0,0,3d3,3d3,002,0,18,20e,380
233,233,0,0,0,3d3,3d3,002,0,19,20e,380
234,234,0,0,0,3d3,3d3,002,0,1a,20e,380
235,235,0,0,0,3d3,3d3,002,0,1b,20e,380
236,236,0,0,0,3d3,3d3,002,0,1c,20e,380
237,237,0,0,0,3d3,3d3,002,0,1d,20e,380
238,238,0,0,0,3d3,3d3,002,0,1e,20e,380
239,239,0,0,0,3d3,3d3,002,0,1f,20e,380
240,240,0,0,0,3d3,3d3,002,0,20,20e,380
241,241,0,0,0,3d3,3d3,002,0,21,20e,380
242,242,0,0,0,3d3,3d3,002,0,22,20e,380
243,243,0,0,0,3d3,3d3,002,0,23,20e,380
244,244,0,0,0,3d3,3d3,002,0,24,20e,380
245,245,0,0,0,3d3,3d3,002,0,25,20e,380
246,246,0,0,0,3d3,3d3,002,0,26,20e,380
247,247,0,0,0,3d3,3d3,002,0,27,20e,380
248,248,0,0,0,3d3,3d3,002,0,28,20e,380
249,249,0,0,0,3d3,3d3,002,0,29,20e,380
250,250,0,0,0,3d3,3d3,002,0,2a,20e,380
251,251,0,0,0,3d3,3d3,002,0,2b,20e,380
252,252,0,0,0,3d3,3d3,002,0,2c,20e,380
253,253,0,0,0,3d3,3d3,002,0,2d,20e,380
254,254,0,0,0,3d3,3d3,002,0,2e,20e,380
255,255,0,0,0,3d3,3d3,002,0,2f,20e,380
256,256,0,0,0,3d3,3d3,002,0,30,20e,380
257,257,0,0,0,3d3,3d3,002,0,31,20e,380
258,258,0,0,0,3d3,3d3,002,0,32,20e,380
259,259,0,0,0,3d3,3d3,002,0,33,20e,380
260,260,0,0,0,3d3,3d3,002,0,34,20e,380
261,261,0,0,0,3d3,3d3,002,0,35,20e,380
262,262,0,0,0,3d3,3d3,002,0,36,20e,380
263,263,0,0,0,3d3,3d3,002,0,37,20e,380
264,264,0,0,0,3d3,3d3,002,0,38,20e,380
265,265,0,0,0,3d3,3d3,002,0,39,20e,380
266,266,0,0,0,3d3,3d3,002,0,3a,20e,380
267,267,0,0,0,3d3,3d3,002,0,3b,20e,380
268,268,0,0,0,3d3,3d3,002,0,3c,20e,380
269,269,0,0,0,3d3,3d3,002,0,3d,20e,380
270,270,0,0,0,3d3,3d3,002,0,3e,20e,380
271,271,0,0,0,3d3,3d3,002,0,3f,20e,380
272,272,0,0,0,3d3,3d3,002,0,40,20e,380
273,273,0,0,0,3d3,3d3,002,0,41,20e,380
274,274,0,0,0,3d3,3d3,002,0,42,20e,380
275,275,0,0,0,3d3,3d3,002,0,43,20e,380
276,276,0,0,0,3d3,3d3,002,0,44,20e,380
277,277,0,0,0,3d3,3d3,002,0,45,20e,380
278,278,0,0,0,3d3,3d3,002,0,46,20e,380
279,279,0,0,0,3d3,3d3,002,0,47,20e,380
280,280,0,0,0,3d3,3d3,002,0,48,20e,380
281,281,0,0,0,3d3,3d3,002,0,49,20e,380
282,282,0,0,0,3d3,3d3,002,0,4a,20e,380
283,283,0,0,0,3d3,3d3,002,0,4b,20e,380
284,284,0,0,0,3d3,3d3,002,0,4c,20e,380
285,285,0,0,0,3d3,3d3,002,0,4d,20e,380
286,286,0,0,0,3d3,3d3,002,0,4e,20e,380
287,287,0,0,0,3d3,3d3,002,0,4f,20e,380
288,288,0,0,0,3d3,3d3,002,0,50,20e,380
289,289,0,0,0,3d3,3d3,002,0,51,20e,380
290,290,0,0,0,3d3,3d3,002,0,52,20e,380
291,291,0,0,0,3d3,3d3,002,0,53,20e,380
292,292,0,0,0,3d3,3d3,002,0,54,20e,380
293,293,0,0,0,3d3,3d3,002,0,55,20e,380
294,294,0,0,0,3d3,3d3,002,0,56,20e,380
295,295,0,0,0,3d3,3d3,002,0,57,20e,380
296,296,0,0,0,3d3,3d3,002,0,58,20e,380
297,297,0,0,0,3d3,3d3,002,0,59,20e,380
298,298,0,0,0,3d3,3d3,002,0,5a,20e,380
299,299,0,0,0,3d3,3d3,002,0,5b,20e,380
300,300,0,0,0,3d3,3d3,002,0,5c,20e,380
301,301,0,0,0,3d3,3d3,002,0,5d,20e,380
302,302,0,0,0,3d3,3d3,002,0,5e,20e,380
303,303,0,0,0,3d3,3d3,002,0,5f,20e,380
304,304,0,0,0,3d3,3d3,002,0,60,20e,380
305,305,0,0,0,3d3,3d3,002,0,61,20e,380
306,306,0,0,0,3d3,3d3,002,0,62,20e,380
307,307,0,0,0,3d3,3d3,002,0,63,20e,380
308,308,0,0,0,3d3,3d3,002,0,64,20e,380
309,309,0,0,0,3d3,3d3,002,0,65,20e,380
310,310,0,0,0,3d3,3d3,002,0,66,20e,380
311,311,0,0,0,3d3,3d3,002,0,67,20e,380
312,312,0,0,0,3d3,3d3,002,0,68,20e,380
313,313,0,0,0,3d3,3d3,002,0,69,20e,380
314,314,0,0,0,3d3,3d3,002,0,6a,20e,380
315,315,0,0,0,3d3,3d3,002,0,6b,20e,380
316,316,0,0,0,3d3,3d3,002,0,6c,20e,380
317,317,0,0,0,3d3,3d3,002,0,6d,20e,380
318,318,0,0,0,3d3,3d3,002,0,6e,20e,380
319,319,0,0,0,3d3,3d3,002,0,6f,20e,380
320,320,0,0,0,3d3,3d3,002,0,70,20e,380
321,321,0,0,0,3d3,3d3,002,0,71,20e,380
322,322,0,0,0,3d3,3d3,002,0,72,20e,380
323,323,0,0,0,3d3,3d3,002,0,73,20e,380
324,324,0,0,0,3d3,3d3,002,0,74,20e,380
325,325,0,0,0,3d3,3d3,002,0,75,20e,380
326,326,0,0,0,3d3,3d3,002,0,76,20e,380
327,327,0,0,0,3d3,3d3,002,0,77,20e,380
328,328,0,0,0,3d3,3d3,002,0,78,20e,380
329,329,0,0,0,3d3,3d3,002,0,79,20e,380
330,330,0,0,0,3d3,3d3,002,0,7a,20e,380
331,331,0,0,0,3d3,3d3,002,0,7b,20e,380
332,332,0,0,0,3d3,3d3,002,0,7c,20e,380
333,333,0,0,0,3d3,3d3,002,0,7d,20e,380
334,334,0,0,0,3d3,3d3,002,0,7e,20e,380
335,335,0,0,0,3d3,3d3,002,0,7f,20e,380
336,336,0,0,0,3d3,3d3,002,0,80,20e,380
337,337,0,0,0,3d3,3d3,002,0,81,20e,380
338,338,0,0,0,3d3,3d3,002,0,82,20e,380
339,339,0,0,0,3d3,3d3,002,0,83,20e,380
340,340,0,0,0,3d3,3d3,002,0,84,20e,380
341,341,0,0,0,3d3,3d3,002,0,85,20e,380
342,342,0,0,0,3d3,3d3,002,0,86,20e,380
343,343,0,0,0,3d3,3d3,002,0,87,20e,380
344,344,0,0,0,3d3,3d3,002,0,88,20e,380
345,345,0,0,0,3d3,3d3,002,0,89,20e,380
346,346,0,0,0,3d3,3d3,002,0,8a,20e,380
347,347,0,0,0,3d3,3d3,002,0,8b,20e,380
348,348,0,0,0,3d3,3d3,002,0,8c,20e,380
349,349,0,0,0,3d3,3d3,002,0,8d,20e,380
350,350,0,0,0,3d3,3d3,002,0,8e,20e,380
351,351,0,0,0,3d3,3d3,002,0,8f,20e,380
352,352,0,0,0,3d3,3d3,002,0,90,20e,380
353,353,0,0,0,3d3,3d3,002,0,91,20e,380
354,354,0,0,0,3d3,3d3,002,0,92,20e,380
355,355,0,0,0,3d3,3d3,002,0,93,20e,380
356,356,0,0,0,3d3,3d3,002,0,94,20e,380
357,357,0,0,0,3d3,3d3,002,0,95,20e,380
358,358,0,0,0,3d3,3d3,002,0,96,20e,380
359,359,0,0,0,3d3,3d3,002,0,97,20e,380
360,360,0,0,0,3d3,3d3,002,0,98,20e,380
361,361,0,0,0,3d3,3d3,002,0,99,20e,380
362,362,0,0,0,3d3,3d3,002,0,9a,20e,380
363,363,0,0,0,3d3,3d3,002,0,9b,20e,380
364,364,0,0,0,3d3,3d3,002,0,9c,20e,380
365,365,0,0,0,3d3,3d3,002,0,9d,20e,380
366,366,0,0,0,3d3,3d3,002,0,9e,20e,380
367,367,0,0,0,3d3,3d3,002,0,9f,20e,380
368,368,0,0,0,3d3,3d3,002,0,a0,20e,380
369,369,0,0,0,3d3,3d3,002,0,a1,20e,380
370,370,0,0,0,3d3,3d3,002,0,a2,20e,380
371,371,0,0,0,3d3,3d3,002,0,a3,20e,380
372,372,0,0,0,3d3,3d3,002,0,a4,20e,380
373,373,0,0,0,3d3,3d3,002,0,a5,20e,380
374,374,0,0,0,3d3,3d3,002,0,a6,20e,380
375,375,0,0,0,3d3,3d3,002,0,a7,20e,380
376,376,0,0,0,3d3,3d3,002,0,a8,20e,380
377,377,0,0,0,3d3,3d3,002,0,a9,20e,380
378,378,0,0,0,3d3,3d3,002,0,aa,20e,380
379,379,0,0,0,3d3,3d3,002,0,ab,20e,380
380,380,0,0,0,3d3,3d3,002,0,ac,20e,380
381,381,0,0,0,3d3,3d3,002,0,ad,20e,380
382,382,0,0,0,3d3,3d3,002,0,ae,20e,380
383,383,0,0,0,3d3,3d3,002,0,af,20e,380
384,384,0,0,0,3d3,3d3,002,0,b0,20e,380
385,385,0,0,0,3d3,3d3,002,0,b1,20e,380
386,386,0,0,0,3d3,3d3,002,0,b2,20e,380
387,387,0,0,0,3d3,3d3,002,0,b3,20e,380
388,388,0,0,0,3d3,3d3,002,0,b4,20e,380
389,389,0,0,0,3d3,3d3,002,0,b5,20e,380
390,390,0,0,0,3d3,3d3,002,0,b6,20e,380
391,391,0,0,0,3d3,3d3,002,0,b7,20e,380
392,392,0,0,0,3d3,3d3,002,0,b8,20e,380
393,393,0,0,0,3d3,3d3,002,0,b9,20e,380
394,394,0,0,0,3d3,3d3,002,0,ba,20e,380
395,395,0,0,0,3d3,3d3,002,0,bb,20e,380
396,396,0,0,0,3d3,3d3,002,0,bc,20e,380
397,397,0,0,0,3d3,3d3,002,0,bd,20e,380
398,398,0,0,0,3d3,3d3,002,0,be,20e,380
399,399,0,0,0,3d3,3d3,002,0,bf,20e,380
400,400,0,0,0,3d3,3d3,002,0,c0,20e,380
401,401,0,0,0,3d3,3d3,002,0,c1,20e,380
402,402,0,0,0,3d3,3d3,002,0,c2,20e,380
403,403,0,0,0,3d3,3d3,002,0,c3,20e,380
404,404,0,0,0,3d3,3d3,002,0,c4,20e,380
405,405,0,0,0,3d3,3d3,002,0,c5,20e,380
406,406,0,0,0,3d3,3d3,002,0,c6,20e,380
407,407,0,0,0,3d3,3d3,002,0,c7,20e,380
408,408,0,0,0,3d3,3d3,002,0,c8,20e,380
409,409,0,0,0,3d3,3d3,002,0,00,20f,380
410,410,0,0,0,3d3,3d3,002,0,01,20f,380
411,411,0,0,0,3d3,3d3,002,0,02,20f,380
412,412,0,0,0,3d3,3d3,002,0,03,20f,380
413,413,0,0,0,3d3,3d3,002,0,04,20f,380
414,414,0,0,0,3d3,3d3,002,0,05,20f,380
415,415,0,0,0,3d3,3d3,002,0,06,20f,380
416,416,0,0,0,3d3,3d3,002,0,07,20f,380
417,417,0,0,0,3d3,3d3,002,0,08,20f,380
418,418,0,0,0,3d3,3d3,002,0,09,20f,380
419,419,0,0,0,3d3,3d3,002,0,0a,20f,380
420,420,0,0,0,3d3,3d3,002,0,0b,20f,380
421,421,0,0,0,3d3,3d3,002,0,0c,20f,380
422,422,0,0,0,3d3,3d3,002,0,0d,20f,380
423,423,0,0,0,3d3,3d3,002,0,0e,20f,380
424,424,0,0,0,3d3,3d3,002,0,0f,20f,380
425,425,0,0,0,3d3,3d3,002,0,10,20f,380
426,426,0,0,0,3d3,3d3,002,0,11,20f,380
427,427,0,0,0,3d3,3d3,002,0,12,20f,380
428,428,0,0,0,3d3,3d3,002,0,13,20f,380
429,429,0,0,0,3d3,3d3,002,0,14,20f,380
430,430,0,0,0,3d3,3d3,002,0,15,20f,380
431,431,0,0,0,3d3,3d3,002,0,16,20f,380
432,432,0,0,0,3d3,3d3,002,0,17,20f,380
433,433,0,0,0,3d3,3d3,002,0,18,20f,380
434,434,0,0,0,3d3,3d3,002,0,19,20f,380
435,435,0,0,0,3d3,3d3,002,0,1a,20f,380
436,436,0,0,0,3d3,3d3,002,0,1b,20f,380
437,437,0,0,0,3d3,3d3,002,0,1c,20f,380
438,438,0,0,0,3d3,3d3,002,0,1d,20f,380
439,439,0,0,0,3d3,3d3,002,0,1e,20f,380
440,440,0,0,0,3d3,3d3,002,0,1f,20f,380
441,441,0,0,0,3d3,3d3,002,0,20,20f,380
442,442,0,0,0,3d3,3d3,002,0,21,20f,380
443,443,0,0,0,3d3,3d3,002,0,22,20f,380
444,444,0,0,0,3d3,3d3,002,0,23,20f,380
445,445,0,0,0,3d3,3d3,002,0,24,20f,380
446,446,0,0,0,3d3,3d3,002,0,25,20f,380
447,447,0,0,0,3d3,3d3,002,0,26,20f,380
448,448,0,0,0,3d3,3d3,002,0,27,20f,380
449,449,0,0,0,3d3,3d3,002,0,28,20f,380
450,450,0,0,0,3d3,3d3,002,0,29,20f,380
451,451,0,0,0,3d3,3d3,002,0,2a,20f,380
452,452,0,0,0,3d3,3d3,002,0,2b,20f,380
453,453,0,0,0,3d3,3d3,002,0,2c,20f,380
454,454,0,0,0,3d3,3d3,002,0,2d,20f,380
455,455,0,0,0,3d3,3d3,002,0,2e,20f,380
456,456,0,0,0,3d3,3d3,002,0,2f,20f,380
457,457,0,0,0,3d3,3d3,002,0,30,20f,380
458,458,0,0,0,3d3,3d3,002,0,31,20f,380
459,459,0,0,0,3d3,3d3,002,0,32,20f,380
460,460,0,0,0,3d3,3d3,002,0,33,20f,380
461,461,0,0,0,3d3,3d3,002,0,34,20f,380
462,462,0,0,0,3d3,3d3,002,0,35,20f,380
463,463,0,0,0,3d3,3d3,002,0,36,20f,380
464,464,0,0,0,3d3,3d3,002,0,37,20f,380
465,465,0,0,0,3d3,3d3,002,0,38,20f,380
466,466,0,0,0,3d3,3d3,002,0,39,20f,380
467,467,0,0,0,3d3,3d3,002,0,3a,20f,380
468,468,0,0,0,3d3,3d3,002,0,3b,20f,380
469,469,0,0,0,3d3,3d3,002,0,3c,20f,380
470,470,0,0,0,3d3,3d3,002,0,3d,20f,380
471,471,0,0,0,3d3,3d3,002,0,3e,20f,380
472,472,0,0,0,3d3,3d3,002,0,3f,20f,380
473,473,0,0,0,3d3,3d3,002,0,40,20f,380
474,474,0,0,0,3d3,3d3,002,0,41,20f,380
475,475,0,0,0,3d3,3d3,002,0,42,20f,380
476,476,0,0,0,3d3,3d3,002,0,43,20f,380
477,477,0,0,0,3d3,3d3,002,0,44,20f,380
478,478,0,0,0,3d3,3d3,002,0,45,20f,380
479,479,0,0,0,3d3,3d3,002,0,46,20f,380
480,480,0,0,0,3d3,3d3,002,0,47,20f,380
481,481,0,0,0,3d3,3d3,002,0,48,20f,380
482,482,0,0,0,3d3,3d3,002,0,49,20f,380
483,483,0,0,0,3d3,3d3,002,0,4a,20f,380
484,484,0,0,0,3d3,3d3,002,0,4b,20f,380
485,485,0,0,0,3d3,3d3,002,0,4c,20f,380
486,486,0,0,0,3d3,3d3,002,0,4d,20f,380
487,487,0,0,0,3d3,3d3,002,0,4e,20f,380
488,488,0,0,0,3d3,3d3,002,0,4f,20f,380
489,489,0,0,0,3d3,3d3,002,0,50,20f,380
490,490,0,0,0,3d3,3d3,002,0,51,20f,380
491,491,0,0,0,3d3,3d3,002,0,52,20f,380
492,492,0,0,0,3d3,3d3,002,0,53,20f,380
493,493,0,0,0,3d3,3d3,002,0,54,20f,380
494,494,0,0,0,3d3,3d3,002,0,55,20f,380
495,495,0,0,0,3d3,3d3,002,0,56,20f,380
496,496,0,0,0,3d3,3d3,002,0,57,20f,380
497,497,0,0,0,3d3,3d3,002,0,58,20f,380
498,498,0,0,0,3d3,3d3,002,0,59,20f,380
499,499,0,0,0,3d3,3d3,002,0,5a,20f,380
500,500,0,0,0,3d3,3d3,002,0,5b,20f,380
501,501,0,0,0,3d3,3d3,002,0,5c,20f,380
502,502,0,0,0,3d3,3d3,002,0,5d,20f,380
503,503,0,0,0,3d3,3d3,002,0,5e,20f,380
504,504,0,0,0,3d3,3d3,002,0,5f,20f,380
505,505,0,0,0,3d3,3d3,002,0,60,20f,380
506,506,0,0,0,3d3,3d3,002,0,61,20f,380
507,507,0,0,0,3d3,3d3,002,0,62,20f,380
508,508,0,0,0,3d3,3d3,002,0,63,20f,380
509,509,0,0,0,3d3,3d3,002,0,64,20f,380
510,510,0,0,0,3d3,3d3,002,0,65,20f,380
511,511,0,0,0,3d3,3d3,002,0,66,20f,380
512,512,0,0,0,3d3,3d3,002,0,67,20f,380
513,513,0,0,0,3d3,3d3,002,0,68,20f,380
